T1A08 030:506 SEGGER J-Link V6.46 Log File (0001ms, 1095ms total)
T1A08 030:506 DLL Compiled: May 23 2019 17:49:56 (0001ms, 1095ms total)
T1A08 030:506 Logging started @ 2021-09-21 20:57 (0001ms, 1095ms total)
T1A08 030:507 JLINK_SetWarnOutHandler(...) (0000ms, 1095ms total)
T1A08 030:507 JLINK_OpenEx(...)
Firmware: J-Link V11 compiled Aug 10 2021 11:18:05
Hardware: V11.00
S/N: 50120677
Feature(s): GDB, JFlash, FlashDL, RDI, FlashBP
TELNET listener socket opened on port 19021Device "STM32H750VB" selected.WEBSRV 
Starting webserver (0037ms, 1132ms total)
T1A08 030:507 WEBSRV Webserver running on local port 19080 (0037ms, 1132ms total)
T1A08 030:507   returns O.K. (0038ms, 1133ms total)
T1A08 030:545 JLINK_GetEmuCaps()  returns 0xB9FF7BBF (0000ms, 1133ms total)
T1A08 030:545 JLINK_TIF_GetAvailable(...) (0001ms, 1134ms total)
T1A08 030:546 JLINK_SetErrorOutHandler(...) (0000ms, 1134ms total)
T1A08 030:546 JLINK_ExecCommand("ProjectFile = "E:\tiao\DEMO\MDK-ARM\JLinkSettings.ini"", ...). Device "STM32H750VB" selected.  returns 0x00 (0004ms, 1138ms total)
T1A08 030:550 JLINK_ExecCommand("Device = STM32H750VBTx", ...). Device "STM32H750VB" selected.  returns 0x00 (0002ms, 1140ms total)
T1A08 030:552 JLINK_ExecCommand("DisableConnectionTimeout", ...).   returns 0x01 (0000ms, 1140ms total)
T1A08 030:552 JLINK_GetHardwareVersion()  returns 0x1ADB0 (0000ms, 1140ms total)
T1A08 030:552 JLINK_GetDLLVersion()  returns 64600 (0000ms, 1140ms total)
T1A08 030:552 JLINK_GetFirmwareString(...) (0000ms, 1140ms total)
T1A08 030:553 JLINK_GetDLLVersion()  returns 64600 (0000ms, 1140ms total)
T1A08 030:553 JLINK_GetCompileDateTime() (0000ms, 1140ms total)
T1A08 030:553 JLINK_GetFirmwareString(...) (0000ms, 1140ms total)
T1A08 030:553 JLINK_GetHardwareVersion()  returns 0x1ADB0 (0000ms, 1140ms total)
T1A08 030:553 JLINK_TIF_Select(JLINKARM_TIF_SWD)  returns 0x00 (0003ms, 1143ms total)
T1A08 030:556 JLINK_SetSpeed(5000) (0001ms, 1144ms total)
T1A08 030:557 JLINK_GetId() >0x10B TIF>Found SW-DP with ID 0x6BA02477 >0x0D TIF> >0x28 TIF> >0x0D TIF> >0x28 TIF> >0x0D TIF> >0x28 TIF> >0x0D TIF> >0x28 TIF> >0x0D TIF> >0x21 TIF> >0x0D TIF> >0x28 TIF> >0x0D TIF> >0x28 TIF> >0x0D TIF> >0x28 TIF> >0x0D TIF> >0x21 TIF> >0x0D TIF> >0x21 TIF> >0x0D TIF> >0x28 TIF> >0x0D TIF> >0x21 TIF> >0x0D TIF> >0x21 TIF> >0x0D TIF> >0x28 TIF> >0x0D TIF> >0x28 TIF> >0x0D TIF> >0x28 TIF> >0x0D TIF> >0x21 TIF> >0x0D TIF> >0x21 TIF> >0x0D TIF> >0x28 TIF> >0x0D TIF> >0x28 TIF>
 >0x0D TIF> >0x28 TIF> >0x0D TIF> >0x21 TIF> >0x0D TIF> >0x21 TIF> >0x0D TIF> >0x28 TIF> >0x0D TIF> >0x21 TIF> >0x0D TIF> >0x21 TIF> >0x0D TIF> >0x28 TIF> >0x0D TIF> >0x21 TIF> >0x0D TIF> >0x21 TIF> >0x0D TIF> >0x28 TIF> >0x0D TIF> >0x21 TIF> >0x0D TIF> >0x21 TIF> >0x0D TIF> >0x28 TIF> >0x0D TIF> >0x21 TIF> >0x0D TIF> >0x21 TIF> >0x0D TIF> >0x28 TIF> >0x0D TIF> >0x21 TIF> >0x0D TIF> >0x21 TIF> >0x10B TIF>Found SW-DP with ID 0x6BA02477 >0x0D TIF> >0x28 TIF> >0x0D TIF> >0x28 TIF> >0x0D TIF> >0x28 TIF>
 >0x0D TIF> >0x28 TIF> >0x0D TIF> >0x21 TIF> >0x0D TIF> >0x28 TIF>Scanning AP map to find all available APs >0x0D TIF> >0x28 TIF> >0x0D TIF> >0x21 TIF> >0x0D TIF> >0x21 TIF> >0x0D TIF> >0x28 TIF> >0x0D TIF> >0x21 TIF> >0x0D TIF> >0x21 TIF> >0x0D TIF> >0x28 TIF> >0x0D TIF> >0x21 TIF> >0x0D TIF> >0x21 TIF> >0x0D TIF> >0x28 TIF> >0x0D TIF> >0x21 TIF> >0x0D TIF> >0x21 TIF>AP[3]: Stopped AP scan as end of AP map has been reachedAP[0]: AHB-AP (IDR: 0x84770001)AP[1]: AHB-AP (IDR: 0x84770001)
AP[2]: APB-AP (IDR: 0x54770002)Iterating through AP map to find AHB-AP to use >0x42 TIF> >0x28 TIF> >0x0D TIF> >0x28 TIF> >0x0D TIF> >0x21 TIF> >0x0D TIF> >0x21 TIF> >0x42 TIF> >0x28 TIF> >0x0D TIF> >0x28 TIF> >0x0D TIF> >0x28 TIF> >0x0D TIF> >0x21 TIF> >0x0D TIF> >0x21 TIF>AP[0]: Core foundAP[0]: AHB-AP ROM base: 0xE00FE000 >0x0D TIF> >0x28 TIF> >0x0D TIF> >0x28 TIF> >0x0D TIF> >0x28 TIF> >0x0D TIF> >0x21 TIF> >0x0D TIF> >0x21 TIF>CPUID register: 0x411FC271. Implementer code: 0x41 (ARM)
Found Cortex-M7 r1p1, Little endian. -- Max. mem block: 0x000052D0 -- CPU_ReadMem(4 bytes @ 0xE000EDF0) -- CPU_WriteMem(4 bytes @ 0xE000EDF0) -- CPU_ReadMem(4 bytes @ 0xE0002000)FPUnit: 8 code (BP) slots and 0 literal slots -- CPU_ReadMem(4 bytes @ 0xE000EDFC) -- CPU_WriteMem(4 bytes @ 0xE000EDFC) -- CPU_ReadMem(4 bytes @ 0xE0001000) -- CPU_WriteMem(4 bytes @ 0xE0001000) -- CPU_ReadMem(4 bytes @ 0xE000ED88) -- CPU_WriteMem(4 bytes @ 0xE000ED88) -- CPU_ReadMem(4 bytes @ 0xE000ED88)
 -- CPU_WriteMem(4 bytes @ 0xE000ED88)CoreSight components:ROMTbl[0] @ E00FE000 -- CPU_ReadMem(16 bytes @ 0xE00FE000) -- CPU_ReadMem(16 bytes @ 0xE00FFFF0) -- CPU_ReadMem(16 bytes @ 0xE00FFFE0)ROMTbl[0][0]: E00FF000, CID: B105100D, PID: 000BB4C7 ROM TableROMTbl[1] @ E00FF000 -- CPU_ReadMem(16 bytes @ 0xE00FF000) -- CPU_ReadMem(16 bytes @ 0xE000EFF0) -- CPU_ReadMem(16 bytes @ 0xE000EFE0)ROMTbl[1][0]: E000E000, CID: B105E00D, PID: 000BB00C SCS-M7 -- CPU_ReadMem(16 bytes @ 0xE0001FF0)
 -- CPU_ReadMem(16 bytes @ 0xE0001FE0)ROMTbl[1][1]: E0001000, CID: B105E00D, PID: 000BB002 DWT -- CPU_ReadMem(16 bytes @ 0xE0002FF0) -- CPU_ReadMem(16 bytes @ 0xE0002FE0)ROMTbl[1][2]: E0002000, CID: B105E00D, PID: 000BB00E FPB-M7 -- CPU_ReadMem(16 bytes @ 0xE0000FF0) -- CPU_ReadMem(16 bytes @ 0xE0000FE0)ROMTbl[1][3]: E0000000, CID: B105E00D, PID: 000BB001 ITM -- CPU_ReadMem(16 bytes @ 0xE00FF010) -- CPU_ReadMem(16 bytes @ 0xE0041FF0) -- CPU_ReadMem(16 bytes @ 0xE0041FE0)
ROMTbl[0][1]: E0041000, CID: B105900D, PID: 001BB975 ETM-M7 -- CPU_ReadMem(16 bytes @ 0xE0043FF0) -- CPU_ReadMem(16 bytes @ 0xE0043FE0)ROMTbl[0][2]: E0043000, CID: B105900D, PID: 004BB906 CTI -- CPU_ReadMem(16 bytes @ 0xE00FE010) -- CPU_ReadMem(4 bytes @ 0xE000ED78)Cache: Separate I- and D-cache. (0284ms, 1428ms total)
T1A08 030:557  -- CPU_WriteMem(4 bytes @ 0xE000ED84) -- CPU_ReadMem(4 bytes @ 0xE000ED80)I-Cache L1: 16 KB, 256 Sets, 32 Bytes/Line, 2-Way -- CPU_WriteMem(4 bytes @ 0xE000ED84) -- CPU_ReadMem(4 bytes @ 0xE000ED80)D-Cache L1: 16 KB, 128 Sets, 32 Bytes/Line, 4-Way >0x0D TIF> >0x21 TIF>  returns 0x6BA02477 (0290ms, 1434ms total)
T1A08 030:847 JLINK_GetDLLVersion()  returns 64600 (0000ms, 1434ms total)
T1A08 030:847 JLINK_CORE_GetFound()  returns 0xE0100FF (0000ms, 1434ms total)
T1A08 030:847 JLINK_GetDebugInfo(0x100 = JLINKARM_ROM_TABLE_ADDR_INDEX) -- Value=0xE00FE000  returns 0x00 (0000ms, 1434ms total)
T1A08 030:847 JLINK_GetDebugInfo(0x100 = JLINKARM_ROM_TABLE_ADDR_INDEX) -- Value=0xE00FE000  returns 0x00 (0000ms, 1434ms total)
T1A08 030:847 JLINK_GetDebugInfo(0x101 = JLINKARM_DEBUG_INFO_ETM_ADDR_INDEX) -- Value=0xE0041000  returns 0x00 (0000ms, 1434ms total)
T1A08 030:847 JLINK_ReadMemEx(0xE0041FD0, 0x0020 Bytes, ..., Flags = 0x02000004) -- CPU_ReadMem(32 bytes @ 0xE0041FD0) - Data: 04 00 00 00 00 00 00 00 00 00 00 00 00 00 00 00 ...  returns 0x20 (0001ms, 1435ms total)
T1A08 030:848 JLINK_GetDebugInfo(0x102 = JLINKARM_DEBUG_INFO_MTB_ADDR_INDEX) -- Value=0x00000000  returns 0x00 (0000ms, 1435ms total)
T1A08 030:848 JLINK_GetDebugInfo(0x103 = JLINKARM_DEBUG_INFO_TPIU_ADDR_INDEX) -- Value=0x00000000  returns 0x00 (0000ms, 1435ms total)
T1A08 030:848 JLINK_ReadMemEx(0xE0040FF0, 0x0010 Bytes, ..., Flags = 0x02000004) -- CPU_ReadMem(16 bytes @ 0xE0040FF0) - Data: 00 00 00 00 00 00 00 00 00 00 00 00 00 00 00 00  returns 0x10 (0001ms, 1436ms total)
T1A08 030:849 JLINK_GetDebugInfo(0x104 = JLINKARM_DEBUG_INFO_ITM_ADDR_INDEX) -- Value=0xE0000000  returns 0x00 (0000ms, 1436ms total)
T1A08 030:849 JLINK_GetDebugInfo(0x105 = JLINKARM_DEBUG_INFO_DWT_ADDR_INDEX) -- Value=0xE0001000  returns 0x00 (0000ms, 1436ms total)
T1A08 030:849 JLINK_GetDebugInfo(0x106 = JLINKARM_DEBUG_INFO_FPB_ADDR_INDEX) -- Value=0xE0002000  returns 0x00 (0000ms, 1436ms total)
T1A08 030:849 JLINK_GetDebugInfo(0x107 = JLINKARM_DEBUG_INFO_NVIC_ADDR_INDEX) -- Value=0xE000E000  returns 0x00 (0000ms, 1436ms total)
T1A08 030:849 JLINK_GetDebugInfo(0x10C = JLINKARM_DEBUG_INFO_DBG_ADDR_INDEX) -- Value=0xE000EDF0  returns 0x00 (0000ms, 1436ms total)
T1A08 030:849 JLINK_GetDebugInfo(0x01 = Unknown) -- Value=0x00000001  returns 0x00 (0000ms, 1436ms total)
T1A08 030:849 JLINK_ReadMemU32(0xE000ED00, 0x0001 Items, ...) -- CPU_ReadMem(4 bytes @ 0xE000ED00) - Data: 71 C2 1F 41  returns 1 (0001ms, 1437ms total)
T1A08 030:850 JLINK_GetDebugInfo(0x10F = JLINKARM_DEBUG_INFO_HAS_CORTEX_M_SECURITY_EXT_INDEX) -- Value=0x00000000  returns 0x00 (0000ms, 1437ms total)
T1A08 030:850 JLINK_SetResetType(JLINKARM_CM3_RESET_TYPE_NORMAL)  returns JLINKARM_CM3_RESET_TYPE_NORMAL (0000ms, 1437ms total)
T1A08 030:850 JLINK_Reset() -- CPU is running -- CPU_WriteMem(4 bytes @ 0xE000EDF0) -- CPU is running -- CPU_WriteMem(4 bytes @ 0xE000EDFC)Reset: Halt core after reset via DEMCR.VC_CORERESET. >0x35 TIF>Reset: Reset device via AIRCR.SYSRESETREQ. -- CPU is running -- CPU_WriteMem(4 bytes @ 0xE000ED0C) >0x0D TIF> >0x28 TIF> -- CPU_ReadMem(4 bytes @ 0xE000EDF0) -- CPU_ReadMem(4 bytes @ 0xE000EDF0) -- CPU is running -- CPU_WriteMem(4 bytes @ 0xE000EDF0) -- CPU is running -- CPU_WriteMem(4 bytes @ 0xE000EDFC)
 -- CPU_ReadMem(4 bytes @ 0xE000EDF0) -- CPU_WriteMem(4 bytes @ 0xE0002000) -- CPU_ReadMem(4 bytes @ 0xE000EDFC) -- CPU_ReadMem(4 bytes @ 0xE0001000) (0070ms, 1507ms total)
T1A08 030:921 JLINK_ReadReg(R15 (PC))  returns 0x08000394 (0000ms, 1507ms total)
T1A08 030:921 JLINK_ReadReg(XPSR)  returns 0x01000000 (0000ms, 1507ms total)
T1A08 030:921 JLINK_Halt()  returns 0x00 (0000ms, 1507ms total)
T1A08 030:921 JLINK_ReadMemU32(0xE000EDF0, 0x0001 Items, ...) -- CPU_ReadMem(4 bytes @ 0xE000EDF0) - Data: 03 00 03 00  returns 1 (0000ms, 1507ms total)
T1A08 030:921 JLINK_WriteU32(0xE000EDF0, 0xA05F0003) -- CPU_WriteMem(4 bytes @ 0xE000EDF0)  returns 0 (0001ms, 1508ms total)
T1A08 030:922 JLINK_WriteU32(0xE000EDFC, 0x01000000) -- CPU_WriteMem(4 bytes @ 0xE000EDFC)  returns 0 (0001ms, 1509ms total)
T1A08 030:923 JLINK_GetHWStatus(...)  returns 0x00 (0001ms, 1510ms total)
T1A08 030:924 JLINK_GetNumBPUnits(Type = 0xFFFFFF00)  returns 0x08 (0000ms, 1510ms total)
T1A08 030:924 JLINK_GetNumBPUnits(Type = 0xF0)  returns 0x2000 (0000ms, 1510ms total)
T1A08 030:924 JLINK_GetNumWPUnits()  returns 0x04 (0000ms, 1510ms total)
T1A08 030:924 JLINK_GetSpeed()  returns 0x1388 (0000ms, 1510ms total)
T1A08 030:924 JLINK_ReadMemU32(0xE000E004, 0x0001 Items, ...) -- CPU_ReadMem(4 bytes @ 0xE000E004) - Data: 04 00 00 00  returns 1 (0001ms, 1511ms total)
T1A08 030:925 JLINK_ReadMemU32(0xE000E004, 0x0001 Items, ...) -- CPU_ReadMem(4 bytes @ 0xE000E004) - Data: 04 00 00 00  returns 1 (0001ms, 1512ms total)
T1A08 030:926 JLINK_WriteMemEx(0xE0001000, 0x001C Bytes, ..., Flags = 0x02000004) - Data: 01 00 00 00 00 00 00 00 00 00 00 00 00 00 00 00 ... -- CPU_WriteMem(28 bytes @ 0xE0001000)  returns 0x1C (0001ms, 1513ms total)
T1A08 030:927 JLINK_ReadReg(R15 (PC))  returns 0x08000394 (0000ms, 1513ms total)
T1A08 030:927 JLINK_ReadReg(XPSR)  returns 0x01000000 (0000ms, 1513ms total)
T1A08 030:932 JLINK_ReadMemEx(0xE0001004, 0x0004 Bytes, ..., Flags = 0x02000000) - Data: 00 00 00 00  returns 0x04 (0000ms, 1513ms total)
T1A08 031:067 JLINK_SetResetType(JLINKARM_CM3_RESET_TYPE_NORMAL)  returns JLINKARM_CM3_RESET_TYPE_NORMAL (0000ms, 1513ms total)
T1A08 031:067 JLINK_Reset() -- CPU_WriteMem(4 bytes @ 0xE000EDF0) -- CPU_WriteMem(4 bytes @ 0xE000EDFC)Reset: Halt core after reset via DEMCR.VC_CORERESET. >0x35 TIF>Reset: Reset device via AIRCR.SYSRESETREQ. -- CPU_WriteMem(4 bytes @ 0xE000ED0C) >0x0D TIF> >0x28 TIF> -- CPU_ReadMem(4 bytes @ 0xE000EDF0) -- CPU_ReadMem(4 bytes @ 0xE000EDF0) -- CPU_WriteMem(4 bytes @ 0xE000EDF0) -- CPU_WriteMem(4 bytes @ 0xE000EDFC) -- CPU_ReadMem(4 bytes @ 0xE000EDF0) -- CPU_WriteMem(4 bytes @ 0xE0002000)
 -- CPU_ReadMem(4 bytes @ 0xE000EDFC) -- CPU_ReadMem(4 bytes @ 0xE0001000) (0070ms, 1583ms total)
T1A08 031:137 JLINK_ReadReg(R15 (PC))  returns 0x08000394 (0000ms, 1583ms total)
T1A08 031:138 JLINK_ReadReg(XPSR)  returns 0x01000000 (0000ms, 1583ms total)
T1A08 031:138 JLINK_ReadMemEx(0x08000394, 0x003C Bytes, ..., Flags = 0x02000000) -- CPU_ReadMem(128 bytes @ 0x08000380) -- Updating C cache (128 bytes @ 0x08000380) -- Read from C cache (60 bytes @ 0x08000394) - Data: 09 48 80 47 09 48 00 47 FE E7 FE E7 FE E7 FE E7 ...  returns 0x3C (0001ms, 1584ms total)
T1A08 031:139 JLINK_ReadMemEx(0x08000394, 0x0002 Bytes, ..., Flags = 0x02000000) -- Read from C cache (2 bytes @ 0x08000394) - Data: 09 48  returns 0x02 (0000ms, 1584ms total)
T1A08 031:139 JLINK_ReadMemEx(0x08000396, 0x0002 Bytes, ..., Flags = 0x02000000) -- Read from C cache (2 bytes @ 0x08000396) - Data: 80 47  returns 0x02 (0000ms, 1584ms total)
T1A08 031:875 JLINK_ReadMemEx(0x08000396, 0x0002 Bytes, ..., Flags = 0x02000000) -- Read from C cache (2 bytes @ 0x08000396) - Data: 80 47  returns 0x02 (0000ms, 1584ms total)
T1A08 031:875 JLINK_ReadMemEx(0x08000398, 0x003C Bytes, ..., Flags = 0x02000000) -- Read from C cache (60 bytes @ 0x08000398) - Data: 09 48 00 47 FE E7 FE E7 FE E7 FE E7 FE E7 FE E7 ...  returns 0x3C (0000ms, 1584ms total)
T1A08 031:875 JLINK_ReadMemEx(0x08000398, 0x0002 Bytes, ..., Flags = 0x02000000) -- Read from C cache (2 bytes @ 0x08000398) - Data: 09 48  returns 0x02 (0000ms, 1584ms total)
T1A08 031:997 JLINK_ReadReg(R0)  returns 0x00000000 (0000ms, 1584ms total)
T1A08 031:997 JLINK_ReadReg(R1)  returns 0x00000000 (0000ms, 1584ms total)
T1A08 031:997 JLINK_ReadReg(R2)  returns 0x00000000 (0000ms, 1584ms total)
T1A08 031:997 JLINK_ReadReg(R3)  returns 0x00000000 (0000ms, 1584ms total)
T1A08 031:997 JLINK_ReadReg(R4)  returns 0x00000000 (0000ms, 1584ms total)
T1A08 031:997 JLINK_ReadReg(R5)  returns 0x00000000 (0000ms, 1584ms total)
T1A08 031:997 JLINK_ReadReg(R6)  returns 0x00000000 (0000ms, 1584ms total)
T1A08 031:997 JLINK_ReadReg(R7)  returns 0x00000000 (0000ms, 1584ms total)
T1A08 031:997 JLINK_ReadReg(R8)  returns 0x00000000 (0000ms, 1584ms total)
T1A08 031:997 JLINK_ReadReg(R9)  returns 0x00000000 (0000ms, 1584ms total)
T1A08 031:997 JLINK_ReadReg(R10)  returns 0x00000000 (0000ms, 1584ms total)
T1A08 031:997 JLINK_ReadReg(R11)  returns 0x00000000 (0000ms, 1584ms total)
T1A08 031:997 JLINK_ReadReg(R12)  returns 0x00000000 (0000ms, 1584ms total)
T1A08 031:997 JLINK_ReadReg(R13 (SP))  returns 0x20000888 (0000ms, 1584ms total)
T1A08 031:997 JLINK_ReadReg(R14)  returns 0xFFFFFFFF (0000ms, 1584ms total)
T1A08 031:997 JLINK_ReadReg(R15 (PC))  returns 0x08000394 (0000ms, 1584ms total)
T1A08 031:997 JLINK_ReadReg(XPSR)  returns 0x01000000 (0000ms, 1584ms total)
T1A08 031:997 JLINK_ReadReg(MSP)  returns 0x20000888 (0000ms, 1584ms total)
T1A08 031:997 JLINK_ReadReg(PSP)  returns 0x00000000 (0000ms, 1584ms total)
T1A08 031:997 JLINK_ReadReg(CFBP)  returns 0x00000000 (0000ms, 1584ms total)
T1A08 031:997 JLINK_ReadReg(FPSCR)  returns 0x00000000 (0003ms, 1587ms total)
T1A08 032:000 JLINK_ReadReg(FPS0)  returns 0x00000000 (0000ms, 1587ms total)
T1A08 032:000 JLINK_ReadReg(FPS1)  returns 0x00000000 (0000ms, 1587ms total)
T1A08 032:000 JLINK_ReadReg(FPS2)  returns 0x00000000 (0000ms, 1587ms total)
T1A08 032:000 JLINK_ReadReg(FPS3)  returns 0x00000000 (0000ms, 1587ms total)
T1A08 032:000 JLINK_ReadReg(FPS4)  returns 0x00000000 (0000ms, 1587ms total)
T1A08 032:001 JLINK_ReadReg(FPS5)  returns 0x00000000 (0000ms, 1587ms total)
T1A08 032:001 JLINK_ReadReg(FPS6)  returns 0x00000000 (0000ms, 1587ms total)
T1A08 032:001 JLINK_ReadReg(FPS7)  returns 0x00000000 (0000ms, 1587ms total)
T1A08 032:001 JLINK_ReadReg(FPS8)  returns 0x00000000 (0000ms, 1587ms total)
T1A08 032:001 JLINK_ReadReg(FPS9)  returns 0x00000000 (0000ms, 1587ms total)
T1A08 032:001 JLINK_ReadReg(FPS10)  returns 0x00000000 (0000ms, 1587ms total)
T1A08 032:001 JLINK_ReadReg(FPS11)  returns 0x00000000 (0000ms, 1587ms total)
T1A08 032:001 JLINK_ReadReg(FPS12)  returns 0x00000000 (0000ms, 1587ms total)
T1A08 032:001 JLINK_ReadReg(FPS13)  returns 0x00000000 (0000ms, 1587ms total)
T1A08 032:001 JLINK_ReadReg(FPS14)  returns 0x00000000 (0000ms, 1587ms total)
T1A08 032:001 JLINK_ReadReg(FPS15)  returns 0xFFFFFFFF (0000ms, 1587ms total)
T1A08 032:001 JLINK_ReadReg(FPS16)  returns 0x00000000 (0000ms, 1587ms total)
T1A08 032:001 JLINK_ReadReg(FPS17)  returns 0x00000000 (0000ms, 1587ms total)
T1A08 032:001 JLINK_ReadReg(FPS18)  returns 0x00000000 (0000ms, 1587ms total)
T1A08 032:001 JLINK_ReadReg(FPS19)  returns 0x00000000 (0000ms, 1587ms total)
T1A08 032:001 JLINK_ReadReg(FPS20)  returns 0x00000000 (0000ms, 1587ms total)
T1A08 032:001 JLINK_ReadReg(FPS21)  returns 0x00000000 (0000ms, 1587ms total)
T1A08 032:001 JLINK_ReadReg(FPS22)  returns 0x00000000 (0000ms, 1587ms total)
T1A08 032:001 JLINK_ReadReg(FPS23)  returns 0x00000000 (0000ms, 1587ms total)
T1A08 032:001 JLINK_ReadReg(FPS24)  returns 0x00000000 (0000ms, 1587ms total)
T1A08 032:001 JLINK_ReadReg(FPS25)  returns 0x00000000 (0000ms, 1587ms total)
T1A08 032:001 JLINK_ReadReg(FPS26)  returns 0x00000000 (0000ms, 1587ms total)
T1A08 032:001 JLINK_ReadReg(FPS27)  returns 0x00000000 (0000ms, 1587ms total)
T1A08 032:001 JLINK_ReadReg(FPS28)  returns 0x00000000 (0000ms, 1587ms total)
T1A08 032:001 JLINK_ReadReg(FPS29)  returns 0x00000000 (0000ms, 1587ms total)
T1A08 032:001 JLINK_ReadReg(FPS30)  returns 0x00000000 (0000ms, 1587ms total)
T1A08 032:001 JLINK_ReadReg(FPS31)  returns 0xFFFFFFFF (0000ms, 1587ms total)
T1F98 032:063 JLINK_ReadMemEx(0x08000394, 0x0002 Bytes, ..., Flags = 0x02000000) -- Read from C cache (2 bytes @ 0x08000394) - Data: 09 48  returns 0x02 (0000ms, 1587ms total)
T1F98 032:063 JLINK_SetBPEx(Addr = 0x08004BEC, Type = 0xFFFFFFF2)  returns 0x00000001 (0000ms, 1587ms total)
T1F98 032:063 JLINK_SetBPEx(Addr = 0x0800647A, Type = 0xFFFFFFF2)  returns 0x00000002 (0000ms, 1587ms total)
T1F98 032:063 JLINK_SetBPEx(Addr = 0x08006432, Type = 0xFFFFFFF2)  returns 0x00000003 (0000ms, 1587ms total)
T1F98 032:063 JLINK_SetBPEx(Addr = 0x080062F4, Type = 0xFFFFFFF2)  returns 0x00000004 (0000ms, 1587ms total)
T1F98 032:063 JLINK_Go() -- CPU_WriteMem(4 bytes @ 0xE0002000) -- CPU_WriteMem(4 bytes @ 0xE0002000) -- CPU_WriteMem(4 bytes @ 0xE0002000) -- CPU_WriteMem(4 bytes @ 0xE0002000) -- CPU_ReadMem(4 bytes @ 0xE0001000) -- CPU_WriteMem(4 bytes @ 0xE0002008) -- CPU_WriteMem(4 bytes @ 0xE000200C) -- CPU_WriteMem(4 bytes @ 0xE0002010) -- CPU_WriteMem(4 bytes @ 0xE0002014) -- CPU_WriteMem(4 bytes @ 0xE0002018) -- CPU_WriteMem(4 bytes @ 0xE000201C) -- CPU_WriteMem(4 bytes @ 0xE0002020)
 -- CPU_WriteMem(4 bytes @ 0xE0002024) -- CPU_WriteMem(4 bytes @ 0xE0001004) (0007ms, 1594ms total)
T1F98 032:170 JLINK_IsHalted()  returns TRUE (0002ms, 1596ms total)
T1F98 032:172 JLINK_Halt()  returns 0x00 (0000ms, 1594ms total)
T1F98 032:172 JLINK_IsHalted()  returns TRUE (0000ms, 1594ms total)
T1F98 032:172 JLINK_IsHalted()  returns TRUE (0000ms, 1594ms total)
T1F98 032:172 JLINK_IsHalted()  returns TRUE (0000ms, 1594ms total)
T1F98 032:172 JLINK_ReadReg(R15 (PC))  returns 0x080062F4 (0000ms, 1594ms total)
T1F98 032:172 JLINK_ReadReg(XPSR)  returns 0x21000000 (0000ms, 1594ms total)
T1F98 032:172 JLINK_ClrBPEx(BPHandle = 0x00000001)  returns 0x00 (0000ms, 1594ms total)
T1F98 032:172 JLINK_ClrBPEx(BPHandle = 0x00000002)  returns 0x00 (0000ms, 1594ms total)
T1F98 032:172 JLINK_ClrBPEx(BPHandle = 0x00000003)  returns 0x00 (0000ms, 1594ms total)
T1F98 032:172 JLINK_ClrBPEx(BPHandle = 0x00000004)  returns 0x00 (0000ms, 1594ms total)
T1F98 032:172 JLINK_ReadMemU32(0xE000ED30, 0x0001 Items, ...) -- CPU_ReadMem(4 bytes @ 0xE000ED30) - Data: 02 00 00 00  returns 1 (0001ms, 1595ms total)
T1F98 032:173 JLINK_ReadMemU32(0xE0001028, 0x0001 Items, ...) -- CPU_ReadMem(4 bytes @ 0xE0001028) - Data: 00 00 00 00  returns 1 (0001ms, 1596ms total)
T1F98 032:174 JLINK_ReadMemU32(0xE0001038, 0x0001 Items, ...) -- CPU_ReadMem(4 bytes @ 0xE0001038) - Data: 00 02 00 00  returns 1 (0001ms, 1597ms total)
T1F98 032:175 JLINK_ReadMemU32(0xE0001048, 0x0001 Items, ...) -- CPU_ReadMem(4 bytes @ 0xE0001048) - Data: 00 00 00 00  returns 1 (0001ms, 1598ms total)
T1F98 032:176 JLINK_ReadMemU32(0xE0001058, 0x0001 Items, ...) -- CPU_ReadMem(4 bytes @ 0xE0001058) - Data: 00 00 00 00  returns 1 (0001ms, 1599ms total)
T1F98 032:177 JLINK_ReadReg(R0)  returns 0x20000288 (0000ms, 1599ms total)
T1F98 032:177 JLINK_ReadReg(R1)  returns 0x20000488 (0000ms, 1599ms total)
T1F98 032:177 JLINK_ReadReg(R2)  returns 0x20000488 (0000ms, 1599ms total)
T1F98 032:177 JLINK_ReadReg(R3)  returns 0x20000488 (0000ms, 1599ms total)
T1F98 032:177 JLINK_ReadReg(R4)  returns 0x00000000 (0000ms, 1599ms total)
T1F98 032:177 JLINK_ReadReg(R5)  returns 0x20000224 (0000ms, 1599ms total)
T1F98 032:177 JLINK_ReadReg(R6)  returns 0x00000000 (0000ms, 1599ms total)
T1F98 032:177 JLINK_ReadReg(R7)  returns 0x00000000 (0000ms, 1599ms total)
T1F98 032:177 JLINK_ReadReg(R8)  returns 0x00000000 (0000ms, 1599ms total)
T1F98 032:177 JLINK_ReadReg(R9)  returns 0x00000000 (0000ms, 1599ms total)
T1F98 032:177 JLINK_ReadReg(R10)  returns 0x08006664 (0000ms, 1599ms total)
T1F98 032:177 JLINK_ReadReg(R11)  returns 0x00000000 (0000ms, 1599ms total)
T1F98 032:177 JLINK_ReadReg(R12)  returns 0x20000264 (0000ms, 1599ms total)
T1F98 032:177 JLINK_ReadReg(R13 (SP))  returns 0x20000888 (0000ms, 1599ms total)
T1F98 032:177 JLINK_ReadReg(R14)  returns 0x08000383 (0000ms, 1599ms total)
T1F98 032:177 JLINK_ReadReg(R15 (PC))  returns 0x080062F4 (0000ms, 1599ms total)
T1F98 032:177 JLINK_ReadReg(XPSR)  returns 0x21000000 (0000ms, 1599ms total)
T1F98 032:177 JLINK_ReadReg(MSP)  returns 0x20000888 (0000ms, 1599ms total)
T1F98 032:177 JLINK_ReadReg(PSP)  returns 0x00000000 (0000ms, 1599ms total)
T1F98 032:177 JLINK_ReadReg(CFBP)  returns 0x04000000 (0000ms, 1599ms total)
T1F98 032:177 JLINK_ReadReg(FPSCR)  returns 0x03000000 (0003ms, 1602ms total)
T1F98 032:180 JLINK_ReadReg(FPS0)  returns 0x00000000 (0000ms, 1602ms total)
T1F98 032:180 JLINK_ReadReg(FPS1)  returns 0x00000000 (0000ms, 1602ms total)
T1F98 032:180 JLINK_ReadReg(FPS2)  returns 0x00000000 (0000ms, 1602ms total)
T1F98 032:180 JLINK_ReadReg(FPS3)  returns 0x00000000 (0000ms, 1602ms total)
T1F98 032:180 JLINK_ReadReg(FPS4)  returns 0x00000000 (0000ms, 1602ms total)
T1F98 032:180 JLINK_ReadReg(FPS5)  returns 0x00000000 (0000ms, 1602ms total)
T1F98 032:180 JLINK_ReadReg(FPS6)  returns 0x00000000 (0000ms, 1602ms total)
T1F98 032:180 JLINK_ReadReg(FPS7)  returns 0x00000000 (0000ms, 1602ms total)
T1F98 032:180 JLINK_ReadReg(FPS8)  returns 0x00000000 (0000ms, 1602ms total)
T1F98 032:180 JLINK_ReadReg(FPS9)  returns 0x00000000 (0000ms, 1602ms total)
T1F98 032:180 JLINK_ReadReg(FPS10)  returns 0x00000000 (0000ms, 1602ms total)
T1F98 032:180 JLINK_ReadReg(FPS11)  returns 0x00000000 (0000ms, 1602ms total)
T1F98 032:180 JLINK_ReadReg(FPS12)  returns 0x00000000 (0000ms, 1602ms total)
T1F98 032:180 JLINK_ReadReg(FPS13)  returns 0x00000000 (0000ms, 1602ms total)
T1F98 032:180 JLINK_ReadReg(FPS14)  returns 0x00000000 (0000ms, 1602ms total)
T1F98 032:180 JLINK_ReadReg(FPS15)  returns 0xFFFFFFFF (0000ms, 1602ms total)
T1F98 032:180 JLINK_ReadReg(FPS16)  returns 0x00000000 (0000ms, 1602ms total)
T1F98 032:180 JLINK_ReadReg(FPS17)  returns 0x00000000 (0000ms, 1602ms total)
T1F98 032:180 JLINK_ReadReg(FPS18)  returns 0x00000000 (0000ms, 1602ms total)
T1F98 032:180 JLINK_ReadReg(FPS19)  returns 0x00000000 (0000ms, 1602ms total)
T1F98 032:180 JLINK_ReadReg(FPS20)  returns 0x00000000 (0000ms, 1602ms total)
T1F98 032:180 JLINK_ReadReg(FPS21)  returns 0x00000000 (0000ms, 1602ms total)
T1F98 032:180 JLINK_ReadReg(FPS22)  returns 0x00000000 (0000ms, 1602ms total)
T1F98 032:180 JLINK_ReadReg(FPS23)  returns 0x00000000 (0000ms, 1602ms total)
T1F98 032:180 JLINK_ReadReg(FPS24)  returns 0x00000000 (0001ms, 1603ms total)
T1F98 032:181 JLINK_ReadReg(FPS25)  returns 0x00000000 (0000ms, 1603ms total)
T1F98 032:181 JLINK_ReadReg(FPS26)  returns 0x00000000 (0000ms, 1603ms total)
T1F98 032:181 JLINK_ReadReg(FPS27)  returns 0x00000000 (0000ms, 1603ms total)
T1F98 032:181 JLINK_ReadReg(FPS28)  returns 0x00000000 (0000ms, 1603ms total)
T1F98 032:181 JLINK_ReadReg(FPS29)  returns 0x00000000 (0000ms, 1603ms total)
T1F98 032:181 JLINK_ReadReg(FPS30)  returns 0x00000000 (0000ms, 1603ms total)
T1F98 032:181 JLINK_ReadReg(FPS31)  returns 0xFFFFFFFF (0000ms, 1603ms total)
T1F98 033:396 JLINK_ReadMemEx(0x080062F4, 0x0002 Bytes, ..., Flags = 0x02000000) -- CPU_ReadMem(64 bytes @ 0x080062C0) -- Updating C cache (64 bytes @ 0x080062C0) -- Read from C cache (2 bytes @ 0x080062F4) - Data: FE F7  returns 0x02 (0000ms, 1603ms total)
T1F98 033:396 JLINK_Step() -- Read from C cache (2 bytes @ 0x080062F4) -- CPU_ReadMem(4 bytes @ 0xE000ED18) -- CPU_WriteMem(4 bytes @ 0xE000ED18) -- CPU_ReadMem(4 bytes @ 0xE000ED18) -- CPU_WriteMem(4 bytes @ 0xE000ED18) -- CPU_ReadMem(4 bytes @ 0xE0001004) -- Read from C cache (2 bytes @ 0x080062F6) -- Simulated  returns 0x00 (0006ms, 1609ms total)
T1F98 033:402 JLINK_ReadReg(R15 (PC))  returns 0x080052A0 (0000ms, 1609ms total)
T1F98 033:402 JLINK_ReadReg(XPSR)  returns 0x21000000 (0000ms, 1609ms total)
T1F98 033:402 JLINK_SetBPEx(Addr = 0x08004BEC, Type = 0xFFFFFFF2)  returns 0x00000005 (0000ms, 1609ms total)
T1F98 033:402 JLINK_SetBPEx(Addr = 0x0800647A, Type = 0xFFFFFFF2)  returns 0x00000006 (0000ms, 1609ms total)
T1F98 033:402 JLINK_SetBPEx(Addr = 0x08006432, Type = 0xFFFFFFF2)  returns 0x00000007 (0000ms, 1609ms total)
T1F98 033:402 JLINK_SetBPEx(Addr = 0x080062F4, Type = 0xFFFFFFF2)  returns 0x00000008 (0000ms, 1609ms total)
T1F98 033:402 JLINK_Go() -- CPU_WriteMem(4 bytes @ 0xE0002000) -- CPU_WriteMem(4 bytes @ 0xE0002000) -- CPU_WriteMem(4 bytes @ 0xE0002000) -- CPU_WriteMem(4 bytes @ 0xE0002000) -- CPU_ReadMem(4 bytes @ 0xE0001000) -- CPU_WriteMem(4 bytes @ 0xE0001004) (0008ms, 1617ms total)
T1F98 033:510 JLINK_IsHalted()  returns TRUE (0002ms, 1619ms total)
T1F98 033:512 JLINK_Halt()  returns 0x00 (0000ms, 1617ms total)
T1F98 033:512 JLINK_IsHalted()  returns TRUE (0000ms, 1617ms total)
T1F98 033:512 JLINK_IsHalted()  returns TRUE (0000ms, 1617ms total)
T1F98 033:512 JLINK_IsHalted()  returns TRUE (0000ms, 1617ms total)
T1F98 033:512 JLINK_ReadReg(R15 (PC))  returns 0x08006432 (0000ms, 1617ms total)
T1F98 033:512 JLINK_ReadReg(XPSR)  returns 0x41000000 (0000ms, 1617ms total)
T1F98 033:512 JLINK_ClrBPEx(BPHandle = 0x00000005)  returns 0x00 (0000ms, 1617ms total)
T1F98 033:512 JLINK_ClrBPEx(BPHandle = 0x00000006)  returns 0x00 (0000ms, 1617ms total)
T1F98 033:512 JLINK_ClrBPEx(BPHandle = 0x00000007)  returns 0x00 (0000ms, 1617ms total)
T1F98 033:512 JLINK_ClrBPEx(BPHandle = 0x00000008)  returns 0x00 (0000ms, 1617ms total)
T1F98 033:512 JLINK_ReadMemU32(0xE000ED30, 0x0001 Items, ...) -- CPU_ReadMem(4 bytes @ 0xE000ED30) - Data: 02 00 00 00  returns 1 (0001ms, 1618ms total)
T1F98 033:513 JLINK_ReadMemU32(0xE0001028, 0x0001 Items, ...) -- CPU_ReadMem(4 bytes @ 0xE0001028) - Data: 00 00 00 00  returns 1 (0001ms, 1619ms total)
T1F98 033:514 JLINK_ReadMemU32(0xE0001038, 0x0001 Items, ...) -- CPU_ReadMem(4 bytes @ 0xE0001038) - Data: 00 02 00 00  returns 1 (0001ms, 1620ms total)
T1F98 033:515 JLINK_ReadMemU32(0xE0001048, 0x0001 Items, ...) -- CPU_ReadMem(4 bytes @ 0xE0001048) - Data: 00 00 00 00  returns 1 (0001ms, 1621ms total)
T1F98 033:516 JLINK_ReadMemU32(0xE0001058, 0x0001 Items, ...) -- CPU_ReadMem(4 bytes @ 0xE0001058) - Data: 00 00 00 00  returns 1 (0001ms, 1622ms total)
T1F98 033:517 JLINK_ReadReg(R0)  returns 0x00000000 (0000ms, 1622ms total)
T1F98 033:517 JLINK_ReadReg(R1)  returns 0x00000000 (0000ms, 1622ms total)
T1F98 033:517 JLINK_ReadReg(R2)  returns 0x00000002 (0000ms, 1622ms total)
T1F98 033:517 JLINK_ReadReg(R3)  returns 0x00000010 (0000ms, 1622ms total)
T1F98 033:517 JLINK_ReadReg(R4)  returns 0xE000ED14 (0000ms, 1622ms total)
T1F98 033:517 JLINK_ReadReg(R5)  returns 0x20000224 (0000ms, 1622ms total)
T1F98 033:517 JLINK_ReadReg(R6)  returns 0x00000000 (0000ms, 1622ms total)
T1F98 033:517 JLINK_ReadReg(R7)  returns 0x00000000 (0000ms, 1622ms total)
T1F98 033:517 JLINK_ReadReg(R8)  returns 0x00000000 (0000ms, 1622ms total)
T1F98 033:517 JLINK_ReadReg(R9)  returns 0x00000000 (0000ms, 1622ms total)
T1F98 033:517 JLINK_ReadReg(R10)  returns 0x08006664 (0000ms, 1622ms total)
T1F98 033:517 JLINK_ReadReg(R11)  returns 0x00000000 (0000ms, 1622ms total)
T1F98 033:517 JLINK_ReadReg(R12)  returns 0x00000000 (0000ms, 1622ms total)
T1F98 033:517 JLINK_ReadReg(R13 (SP))  returns 0x20000888 (0000ms, 1622ms total)
T1F98 033:517 JLINK_ReadReg(R14)  returns 0x08004ABD (0000ms, 1622ms total)
T1F98 033:517 JLINK_ReadReg(R15 (PC))  returns 0x08006432 (0000ms, 1622ms total)
T1F98 033:517 JLINK_ReadReg(XPSR)  returns 0x41000000 (0000ms, 1622ms total)
T1F98 033:517 JLINK_ReadReg(MSP)  returns 0x20000888 (0000ms, 1622ms total)
T1F98 033:517 JLINK_ReadReg(PSP)  returns 0x00000000 (0000ms, 1622ms total)
T1F98 033:517 JLINK_ReadReg(CFBP)  returns 0x04000000 (0000ms, 1622ms total)
T1F98 033:517 JLINK_ReadReg(FPSCR)  returns 0x03000000 (0003ms, 1625ms total)
T1F98 033:520 JLINK_ReadReg(FPS0)  returns 0x00000000 (0000ms, 1625ms total)
T1F98 033:520 JLINK_ReadReg(FPS1)  returns 0x4E64E1C0 (0000ms, 1625ms total)
T1F98 033:520 JLINK_ReadReg(FPS2)  returns 0x1C9C3800 (0000ms, 1625ms total)
T1F98 033:520 JLINK_ReadReg(FPS3)  returns 0x4DE4E1C0 (0000ms, 1625ms total)
T1F98 033:520 JLINK_ReadReg(FPS4)  returns 0x4A742400 (0000ms, 1625ms total)
T1F98 033:520 JLINK_ReadReg(FPS5)  returns 0x00000000 (0000ms, 1625ms total)
T1F98 033:520 JLINK_ReadReg(FPS6)  returns 0x00000000 (0000ms, 1625ms total)
T1F98 033:520 JLINK_ReadReg(FPS7)  returns 0x00000000 (0000ms, 1625ms total)
T1F98 033:520 JLINK_ReadReg(FPS8)  returns 0x00000000 (0000ms, 1625ms total)
T1F98 033:520 JLINK_ReadReg(FPS9)  returns 0x00000000 (0000ms, 1625ms total)
T1F98 033:520 JLINK_ReadReg(FPS10)  returns 0x00000000 (0000ms, 1625ms total)
T1F98 033:520 JLINK_ReadReg(FPS11)  returns 0x00000000 (0000ms, 1625ms total)
T1F98 033:520 JLINK_ReadReg(FPS12)  returns 0x00000000 (0000ms, 1625ms total)
T1F98 033:520 JLINK_ReadReg(FPS13)  returns 0x00000000 (0000ms, 1625ms total)
T1F98 033:520 JLINK_ReadReg(FPS14)  returns 0x00000000 (0000ms, 1625ms total)
T1F98 033:520 JLINK_ReadReg(FPS15)  returns 0xFFFFFFFF (0000ms, 1625ms total)
T1F98 033:520 JLINK_ReadReg(FPS16)  returns 0x00000000 (0000ms, 1625ms total)
T1F98 033:520 JLINK_ReadReg(FPS17)  returns 0x00000000 (0000ms, 1625ms total)
T1F98 033:520 JLINK_ReadReg(FPS18)  returns 0x00000000 (0000ms, 1625ms total)
T1F98 033:520 JLINK_ReadReg(FPS19)  returns 0x00000000 (0001ms, 1626ms total)
T1F98 033:521 JLINK_ReadReg(FPS20)  returns 0x00000000 (0000ms, 1626ms total)
T1F98 033:521 JLINK_ReadReg(FPS21)  returns 0x00000000 (0000ms, 1626ms total)
T1F98 033:521 JLINK_ReadReg(FPS22)  returns 0x00000000 (0000ms, 1626ms total)
T1F98 033:521 JLINK_ReadReg(FPS23)  returns 0x00000000 (0000ms, 1626ms total)
T1F98 033:521 JLINK_ReadReg(FPS24)  returns 0x00000000 (0000ms, 1626ms total)
T1F98 033:521 JLINK_ReadReg(FPS25)  returns 0x00000000 (0000ms, 1626ms total)
T1F98 033:521 JLINK_ReadReg(FPS26)  returns 0x00000000 (0000ms, 1626ms total)
T1F98 033:521 JLINK_ReadReg(FPS27)  returns 0x00000000 (0000ms, 1626ms total)
T1F98 033:521 JLINK_ReadReg(FPS28)  returns 0x00000000 (0000ms, 1626ms total)
T1F98 033:521 JLINK_ReadReg(FPS29)  returns 0x00000000 (0000ms, 1626ms total)
T1F98 033:521 JLINK_ReadReg(FPS30)  returns 0x00000000 (0000ms, 1626ms total)
T1F98 033:521 JLINK_ReadReg(FPS31)  returns 0xFFFFFFFF (0000ms, 1626ms total)
T1A08 033:521 JLINK_ReadMemEx(0x08006432, 0x0002 Bytes, ..., Flags = 0x02000000) -- CPU_ReadMem(64 bytes @ 0x08006400) -- Updating C cache (64 bytes @ 0x08006400) -- Read from C cache (2 bytes @ 0x08006432) - Data: 00 20  returns 0x02 (0001ms, 1627ms total)
T1A08 033:522 JLINK_ReadMemEx(0x08006434, 0x003C Bytes, ..., Flags = 0x02000000) -- CPU_ReadMem(64 bytes @ 0x08006440) -- Updating C cache (64 bytes @ 0x08006440) -- Read from C cache (60 bytes @ 0x08006434) - Data: 07 E0 C1 B2 41 F4 80 71 15 4A 22 F8 10 10 41 1C ...  returns 0x3C (0001ms, 1628ms total)
T1A08 033:523 JLINK_ReadMemEx(0x08006434, 0x0002 Bytes, ..., Flags = 0x02000000) -- Read from C cache (2 bytes @ 0x08006434) - Data: 07 E0  returns 0x02 (0000ms, 1628ms total)
T1F98 034:043 JLINK_ReadMemEx(0x08006432, 0x0002 Bytes, ..., Flags = 0x02000000) -- Read from C cache (2 bytes @ 0x08006432) - Data: 00 20  returns 0x02 (0000ms, 1628ms total)
T1F98 034:043 JLINK_Step() -- Read from C cache (2 bytes @ 0x08006432) -- CPU_ReadMem(4 bytes @ 0xE0001004) -- Simulated  returns 0x00 (0002ms, 1630ms total)
T1F98 034:045 JLINK_ReadReg(R15 (PC))  returns 0x08006434 (0000ms, 1630ms total)
T1F98 034:045 JLINK_ReadReg(XPSR)  returns 0x41000000 (0000ms, 1630ms total)
T1F98 034:045 JLINK_SetBPEx(Addr = 0x08004BEC, Type = 0xFFFFFFF2)  returns 0x00000009 (0000ms, 1630ms total)
T1F98 034:045 JLINK_SetBPEx(Addr = 0x0800647A, Type = 0xFFFFFFF2)  returns 0x0000000A (0000ms, 1630ms total)
T1F98 034:045 JLINK_SetBPEx(Addr = 0x08006432, Type = 0xFFFFFFF2)  returns 0x0000000B (0000ms, 1630ms total)
T1F98 034:045 JLINK_SetBPEx(Addr = 0x080062F4, Type = 0xFFFFFFF2)  returns 0x0000000C (0000ms, 1630ms total)
T1F98 034:045 JLINK_Go() -- CPU_WriteMem(4 bytes @ 0xE0002000) -- CPU_WriteMem(4 bytes @ 0xE0002000) -- CPU_WriteMem(4 bytes @ 0xE0002000) -- CPU_WriteMem(4 bytes @ 0xE0002000) -- CPU_ReadMem(4 bytes @ 0xE0001000) -- CPU_WriteMem(4 bytes @ 0xE0001004) (0009ms, 1639ms total)
T1F98 034:154 JLINK_IsHalted()  returns TRUE (0002ms, 1641ms total)
T1F98 034:156 JLINK_Halt()  returns 0x00 (0000ms, 1639ms total)
T1F98 034:156 JLINK_IsHalted()  returns TRUE (0000ms, 1639ms total)
T1F98 034:156 JLINK_IsHalted()  returns TRUE (0000ms, 1639ms total)
T1F98 034:156 JLINK_IsHalted()  returns TRUE (0000ms, 1639ms total)
T1F98 034:156 JLINK_ReadReg(R15 (PC))  returns 0x0800647A (0000ms, 1639ms total)
T1F98 034:156 JLINK_ReadReg(XPSR)  returns 0x61000000 (0000ms, 1639ms total)
T1F98 034:156 JLINK_ClrBPEx(BPHandle = 0x00000009)  returns 0x00 (0000ms, 1639ms total)
T1F98 034:156 JLINK_ClrBPEx(BPHandle = 0x0000000A)  returns 0x00 (0000ms, 1639ms total)
T1F98 034:156 JLINK_ClrBPEx(BPHandle = 0x0000000B)  returns 0x00 (0000ms, 1639ms total)
T1F98 034:156 JLINK_ClrBPEx(BPHandle = 0x0000000C)  returns 0x00 (0000ms, 1639ms total)
T1F98 034:156 JLINK_ReadMemU32(0xE000ED30, 0x0001 Items, ...) -- CPU_ReadMem(4 bytes @ 0xE000ED30) - Data: 02 00 00 00  returns 1 (0001ms, 1640ms total)
T1F98 034:157 JLINK_ReadMemU32(0xE0001028, 0x0001 Items, ...) -- CPU_ReadMem(4 bytes @ 0xE0001028) - Data: 00 00 00 00  returns 1 (0001ms, 1641ms total)
T1F98 034:158 JLINK_ReadMemU32(0xE0001038, 0x0001 Items, ...) -- CPU_ReadMem(4 bytes @ 0xE0001038) - Data: 00 02 00 00  returns 1 (0001ms, 1642ms total)
T1F98 034:159 JLINK_ReadMemU32(0xE0001048, 0x0001 Items, ...) -- CPU_ReadMem(4 bytes @ 0xE0001048) - Data: 00 00 00 00  returns 1 (0001ms, 1643ms total)
T1F98 034:160 JLINK_ReadMemU32(0xE0001058, 0x0001 Items, ...) -- CPU_ReadMem(4 bytes @ 0xE0001058) - Data: 00 00 00 00  returns 1 (0001ms, 1644ms total)
T1F98 034:161 JLINK_ReadReg(R0)  returns 0x2000102D (0000ms, 1644ms total)
T1F98 034:161 JLINK_ReadReg(R1)  returns 0x40011400 (0000ms, 1644ms total)
T1F98 034:161 JLINK_ReadReg(R2)  returns 0x24000000 (0000ms, 1644ms total)
T1F98 034:161 JLINK_ReadReg(R3)  returns 0x00000010 (0000ms, 1644ms total)
T1F98 034:161 JLINK_ReadReg(R4)  returns 0xE000ED14 (0000ms, 1644ms total)
T1F98 034:161 JLINK_ReadReg(R5)  returns 0x20000224 (0000ms, 1644ms total)
T1F98 034:161 JLINK_ReadReg(R6)  returns 0x00000000 (0000ms, 1644ms total)
T1F98 034:161 JLINK_ReadReg(R7)  returns 0x00000000 (0000ms, 1644ms total)
T1F98 034:161 JLINK_ReadReg(R8)  returns 0x00000000 (0000ms, 1644ms total)
T1F98 034:161 JLINK_ReadReg(R9)  returns 0x00000000 (0000ms, 1644ms total)
T1F98 034:161 JLINK_ReadReg(R10)  returns 0x08006664 (0000ms, 1644ms total)
T1F98 034:161 JLINK_ReadReg(R11)  returns 0x00000000 (0000ms, 1644ms total)
T1F98 034:161 JLINK_ReadReg(R12)  returns 0x00000000 (0000ms, 1644ms total)
T1F98 034:161 JLINK_ReadReg(R13 (SP))  returns 0x20000888 (0000ms, 1644ms total)
T1F98 034:161 JLINK_ReadReg(R14)  returns 0x08004ABD (0000ms, 1644ms total)
T1F98 034:161 JLINK_ReadReg(R15 (PC))  returns 0x0800647A (0000ms, 1644ms total)
T1F98 034:161 JLINK_ReadReg(XPSR)  returns 0x61000000 (0000ms, 1644ms total)
T1F98 034:161 JLINK_ReadReg(MSP)  returns 0x20000888 (0000ms, 1644ms total)
T1F98 034:161 JLINK_ReadReg(PSP)  returns 0x00000000 (0000ms, 1644ms total)
T1F98 034:161 JLINK_ReadReg(CFBP)  returns 0x04000000 (0000ms, 1644ms total)
T1F98 034:161 JLINK_ReadReg(FPSCR)  returns 0x03000000 (0003ms, 1647ms total)
T1F98 034:164 JLINK_ReadReg(FPS0)  returns 0x00000000 (0000ms, 1647ms total)
T1F98 034:164 JLINK_ReadReg(FPS1)  returns 0x4E64E1C0 (0000ms, 1647ms total)
T1F98 034:164 JLINK_ReadReg(FPS2)  returns 0x1C9C3800 (0000ms, 1647ms total)
T1F98 034:164 JLINK_ReadReg(FPS3)  returns 0x4DE4E1C0 (0000ms, 1647ms total)
T1F98 034:164 JLINK_ReadReg(FPS4)  returns 0x4A742400 (0000ms, 1647ms total)
T1F98 034:164 JLINK_ReadReg(FPS5)  returns 0x00000000 (0000ms, 1647ms total)
T1F98 034:164 JLINK_ReadReg(FPS6)  returns 0x00000000 (0000ms, 1647ms total)
T1F98 034:164 JLINK_ReadReg(FPS7)  returns 0x00000000 (0000ms, 1647ms total)
T1F98 034:164 JLINK_ReadReg(FPS8)  returns 0x00000000 (0000ms, 1647ms total)
T1F98 034:164 JLINK_ReadReg(FPS9)  returns 0x00000000 (0000ms, 1647ms total)
T1F98 034:164 JLINK_ReadReg(FPS10)  returns 0x00000000 (0000ms, 1647ms total)
T1F98 034:164 JLINK_ReadReg(FPS11)  returns 0x00000000 (0000ms, 1647ms total)
T1F98 034:164 JLINK_ReadReg(FPS12)  returns 0x00000000 (0000ms, 1647ms total)
T1F98 034:164 JLINK_ReadReg(FPS13)  returns 0x00000000 (0000ms, 1647ms total)
T1F98 034:164 JLINK_ReadReg(FPS14)  returns 0x00000000 (0000ms, 1647ms total)
T1F98 034:164 JLINK_ReadReg(FPS15)  returns 0xFFFFFFFF (0000ms, 1647ms total)
T1F98 034:164 JLINK_ReadReg(FPS16)  returns 0x00000000 (0000ms, 1647ms total)
T1F98 034:164 JLINK_ReadReg(FPS17)  returns 0x00000000 (0000ms, 1647ms total)
T1F98 034:164 JLINK_ReadReg(FPS18)  returns 0x00000000 (0000ms, 1647ms total)
T1F98 034:164 JLINK_ReadReg(FPS19)  returns 0x00000000 (0000ms, 1647ms total)
T1F98 034:164 JLINK_ReadReg(FPS20)  returns 0x00000000 (0000ms, 1647ms total)
T1F98 034:164 JLINK_ReadReg(FPS21)  returns 0x00000000 (0000ms, 1647ms total)
T1F98 034:164 JLINK_ReadReg(FPS22)  returns 0x00000000 (0000ms, 1647ms total)
T1F98 034:164 JLINK_ReadReg(FPS23)  returns 0x00000000 (0001ms, 1648ms total)
T1F98 034:165 JLINK_ReadReg(FPS24)  returns 0x00000000 (0000ms, 1648ms total)
T1F98 034:165 JLINK_ReadReg(FPS25)  returns 0x00000000 (0000ms, 1648ms total)
T1F98 034:165 JLINK_ReadReg(FPS26)  returns 0x00000000 (0000ms, 1648ms total)
T1F98 034:165 JLINK_ReadReg(FPS27)  returns 0x00000000 (0000ms, 1648ms total)
T1F98 034:165 JLINK_ReadReg(FPS28)  returns 0x00000000 (0000ms, 1648ms total)
T1F98 034:165 JLINK_ReadReg(FPS29)  returns 0x00000000 (0000ms, 1648ms total)
T1F98 034:165 JLINK_ReadReg(FPS30)  returns 0x00000000 (0000ms, 1648ms total)
T1F98 034:165 JLINK_ReadReg(FPS31)  returns 0xFFFFFFFF (0000ms, 1648ms total)
T1F98 034:675 JLINK_ReadMemEx(0x0800647A, 0x0002 Bytes, ..., Flags = 0x02000000) -- CPU_ReadMem(64 bytes @ 0x08006440) -- Updating C cache (64 bytes @ 0x08006440) -- Read from C cache (2 bytes @ 0x0800647A) - Data: 05 E0  returns 0x02 (0001ms, 1649ms total)
T1F98 034:676 JLINK_Step() -- Read from C cache (2 bytes @ 0x0800647A) -- CPU_ReadMem(4 bytes @ 0xE0001004) -- Simulated  returns 0x00 (0001ms, 1650ms total)
T1F98 034:677 JLINK_ReadReg(R15 (PC))  returns 0x08006488 (0000ms, 1650ms total)
T1F98 034:677 JLINK_ReadReg(XPSR)  returns 0x61000000 (0000ms, 1650ms total)
T1F98 034:677 JLINK_SetBPEx(Addr = 0x08004BEC, Type = 0xFFFFFFF2)  returns 0x0000000D (0000ms, 1650ms total)
T1F98 034:677 JLINK_SetBPEx(Addr = 0x0800647A, Type = 0xFFFFFFF2)  returns 0x0000000E (0000ms, 1650ms total)
T1F98 034:677 JLINK_SetBPEx(Addr = 0x08006432, Type = 0xFFFFFFF2)  returns 0x0000000F (0000ms, 1650ms total)
T1F98 034:677 JLINK_SetBPEx(Addr = 0x080062F4, Type = 0xFFFFFFF2)  returns 0x00000010 (0001ms, 1651ms total)
T1F98 034:678 JLINK_Go() -- CPU_WriteMem(4 bytes @ 0xE0002000) -- CPU_WriteMem(4 bytes @ 0xE0002000) -- CPU_WriteMem(4 bytes @ 0xE0002000) -- CPU_WriteMem(4 bytes @ 0xE0002000) -- CPU_ReadMem(4 bytes @ 0xE0001000) -- CPU_WriteMem(4 bytes @ 0xE0001004) (0008ms, 1659ms total)
T1F98 034:786 JLINK_IsHalted()  returns FALSE (0000ms, 1659ms total)
T1F98 034:887 JLINK_IsHalted()  returns FALSE (0000ms, 1659ms total)
T1F98 034:987 JLINK_IsHalted()  returns FALSE (0000ms, 1659ms total)
T1F98 035:087 JLINK_IsHalted()  returns FALSE (0000ms, 1659ms total)
T1F98 035:187 JLINK_IsHalted()  returns FALSE (0000ms, 1659ms total)
T1F98 035:287 JLINK_ReadMemU32(0xE0001004, 0x0001 Items, ...) -- CPU_ReadMem(4 bytes @ 0xE0001004) - Data: 6E F4 29 11  returns 1 (0000ms, 1659ms total)
T1F98 035:288 JLINK_IsHalted()  returns FALSE (0000ms, 1659ms total)
T1F98 035:388 JLINK_IsHalted()  returns FALSE (0000ms, 1659ms total)
T1F98 035:488 JLINK_IsHalted()  returns FALSE (0000ms, 1659ms total)
T1F98 035:588 JLINK_IsHalted()  returns FALSE (0000ms, 1659ms total)
T1F98 035:688 JLINK_IsHalted()  returns FALSE (0000ms, 1659ms total)
T1F98 035:788 JLINK_ReadMemU32(0xE0001004, 0x0001 Items, ...) - Data: 6E F4 29 11  returns 1 (0000ms, 1659ms total)
T1F98 035:789 JLINK_IsHalted()  returns FALSE (0000ms, 1659ms total)
T1F98 035:889 JLINK_IsHalted()  returns FALSE (0000ms, 1659ms total)
T1F98 035:989 JLINK_IsHalted()  returns FALSE (0000ms, 1659ms total)
T1F98 036:089 JLINK_IsHalted()  returns FALSE (0000ms, 1659ms total)
T1F98 036:189 JLINK_IsHalted()  returns FALSE (0000ms, 1659ms total)
T1F98 036:289 JLINK_IsHalted()  returns FALSE (0000ms, 1659ms total)
T1F98 036:389 JLINK_ReadMemU32(0xE0001004, 0x0001 Items, ...) - Data: 6E F4 29 11  returns 1 (0000ms, 1659ms total)
T1F98 036:389 JLINK_IsHalted()  returns FALSE (0001ms, 1660ms total)
T1F98 036:490 JLINK_IsHalted()  returns FALSE (0000ms, 1659ms total)
T1F98 036:590 JLINK_IsHalted()  returns FALSE (0000ms, 1659ms total)
T1F98 036:690 JLINK_IsHalted()  returns FALSE (0001ms, 1660ms total)
T1F98 036:791 JLINK_IsHalted()  returns FALSE (0000ms, 1659ms total)
T1F98 036:891 JLINK_IsHalted()  returns FALSE (0000ms, 1659ms total)
T1F98 036:991 JLINK_ReadMemU32(0xE0001004, 0x0001 Items, ...) - Data: 6E F4 29 11  returns 1 (0000ms, 1659ms total)
T1F98 036:991 JLINK_IsHalted()  returns FALSE (0001ms, 1660ms total)
T1F98 037:092 JLINK_IsHalted()  returns FALSE (0000ms, 1659ms total)
T1F98 037:192 JLINK_IsHalted()  returns FALSE (0000ms, 1659ms total)
T1F98 037:292 JLINK_IsHalted()  returns FALSE (0000ms, 1659ms total)
T1F98 037:392 JLINK_IsHalted()  returns FALSE (0000ms, 1659ms total)
T1F98 037:492 JLINK_IsHalted()  returns FALSE (0000ms, 1659ms total)
T1F98 037:592 JLINK_ReadMemU32(0xE0001004, 0x0001 Items, ...) - Data: 6E F4 29 11  returns 1 (0000ms, 1659ms total)
T1F98 037:593 JLINK_IsHalted()  returns FALSE (0000ms, 1659ms total)
T1F98 037:693 JLINK_IsHalted()  returns FALSE (0000ms, 1659ms total)
T1F98 037:793 JLINK_IsHalted()  returns FALSE (0000ms, 1659ms total)
T1F98 037:893 JLINK_IsHalted()  returns FALSE (0000ms, 1659ms total)
T1F98 037:993 JLINK_IsHalted()  returns FALSE (0000ms, 1659ms total)
T1F98 038:093 JLINK_IsHalted()  returns FALSE (0000ms, 1659ms total)
T1F98 038:193 JLINK_ReadMemU32(0xE0001004, 0x0001 Items, ...) - Data: 6E F4 29 11  returns 1 (0000ms, 1659ms total)
T1F98 038:193 JLINK_IsHalted()  returns FALSE (0001ms, 1660ms total)
T1F98 038:294 JLINK_IsHalted()  returns FALSE (0000ms, 1659ms total)
T1F98 038:394 JLINK_IsHalted()  returns FALSE (0000ms, 1659ms total)
T1F98 038:494 JLINK_IsHalted()  returns FALSE (0000ms, 1659ms total)
T1F98 038:594 JLINK_IsHalted()  returns FALSE (0000ms, 1659ms total)
T1F98 038:694 JLINK_IsHalted()  returns FALSE (0000ms, 1659ms total)
T1F98 038:794 JLINK_ReadMemU32(0xE0001004, 0x0001 Items, ...) - Data: 6E F4 29 11  returns 1 (0000ms, 1659ms total)
T1F98 038:794 JLINK_IsHalted()  returns FALSE (0001ms, 1660ms total)
T1F98 038:895 JLINK_IsHalted()  returns FALSE (0000ms, 1659ms total)
T1F98 038:995 JLINK_IsHalted()  returns FALSE (0000ms, 1659ms total)
T1F98 039:095 JLINK_IsHalted()  returns FALSE (0000ms, 1659ms total)
T1F98 039:195 JLINK_IsHalted()  returns FALSE (0000ms, 1659ms total)
T1F98 039:295 JLINK_IsHalted()  returns FALSE (0000ms, 1659ms total)
T1F98 039:395 JLINK_ReadMemU32(0xE0001004, 0x0001 Items, ...) - Data: 6E F4 29 11  returns 1 (0000ms, 1659ms total)
T1F98 039:395 JLINK_IsHalted()  returns FALSE (0001ms, 1660ms total)
T1F98 039:496 JLINK_IsHalted()  returns FALSE (0000ms, 1659ms total)
T1F98 039:596 JLINK_IsHalted()  returns FALSE (0000ms, 1659ms total)
T1F98 039:696 JLINK_IsHalted()  returns FALSE (0000ms, 1659ms total)
T1F98 039:796 JLINK_IsHalted()  returns FALSE (0000ms, 1659ms total)
T1F98 039:896 JLINK_IsHalted()  returns FALSE (0000ms, 1659ms total)
T1F98 039:996 JLINK_ReadMemU32(0xE0001004, 0x0001 Items, ...) - Data: 6E F4 29 11  returns 1 (0000ms, 1659ms total)
T1F98 039:996 JLINK_IsHalted()  returns FALSE (0001ms, 1660ms total)
T1F98 040:097 JLINK_IsHalted()  returns FALSE (0000ms, 1659ms total)
T1F98 040:197 JLINK_IsHalted()  returns FALSE (0000ms, 1659ms total)
T1F98 040:297 JLINK_IsHalted()  returns FALSE (0000ms, 1659ms total)
T1F98 040:397 JLINK_IsHalted()  returns FALSE (0000ms, 1659ms total)
T1F98 040:497 JLINK_IsHalted()  returns FALSE (0000ms, 1659ms total)
T1F98 040:597 JLINK_ReadMemU32(0xE0001004, 0x0001 Items, ...) - Data: 6E F4 29 11  returns 1 (0000ms, 1659ms total)
T1F98 040:597 JLINK_IsHalted()  returns FALSE (0001ms, 1660ms total)
T1F98 040:698 JLINK_IsHalted()  returns FALSE (0000ms, 1659ms total)
T1F98 040:798 JLINK_IsHalted()  returns FALSE (0000ms, 1659ms total)
T1F98 040:898 JLINK_IsHalted()  returns FALSE (0000ms, 1659ms total)
T1F98 040:998 JLINK_IsHalted()  returns FALSE (0000ms, 1659ms total)
T1F98 041:098 JLINK_IsHalted()  returns FALSE (0000ms, 1659ms total)
T1F98 041:198 JLINK_ReadMemU32(0xE0001004, 0x0001 Items, ...) - Data: 6E F4 29 11  returns 1 (0000ms, 1659ms total)
T1F98 041:198 JLINK_IsHalted()  returns FALSE (0001ms, 1660ms total)
T1F98 041:299 JLINK_IsHalted()  returns FALSE (0000ms, 1659ms total)
T1F98 041:399 JLINK_IsHalted()  returns FALSE (0000ms, 1659ms total)
T1F98 041:499 JLINK_IsHalted()  returns FALSE (0000ms, 1659ms total)
T1F98 041:599 JLINK_IsHalted()  returns FALSE (0000ms, 1659ms total)
T1F98 041:699 JLINK_ReadMemU32(0xE0001004, 0x0001 Items, ...) - Data: 6E F4 29 11  returns 1 (0000ms, 1659ms total)
T1F98 041:699 JLINK_IsHalted()  returns FALSE (0001ms, 1660ms total)
T1F98 041:800 JLINK_IsHalted()  returns FALSE (0000ms, 1659ms total)
T1F98 041:900 JLINK_IsHalted()  returns FALSE (0000ms, 1659ms total)
T1F98 042:000 JLINK_IsHalted()  returns FALSE (0000ms, 1659ms total)
T1A08 042:063 JLINK_ReadMemEx(0x24000804, 0x0001 Bytes, ..., Flags = 0x02000000) -- CPU_ReadMem(1 bytes @ 0x24000804) - Data: 02  returns 0x01 (0001ms, 1660ms total)
T1A08 042:064 JLINK_ReadMemEx(0x24000806, 0x0002 Bytes, ..., Flags = 0x02000000) -- CPU_ReadMem(2 bytes @ 0x24000806) - Data: 66 00  returns 0x02 (0001ms, 1661ms total)
T1A08 042:065 JLINK_ReadMemEx(0x24000808, 0x0002 Bytes, ..., Flags = 0x02000000) -- CPU_ReadMem(2 bytes @ 0x24000808) - Data: 00 02  returns 0x02 (0001ms, 1662ms total)
T1A08 042:066 JLINK_ReadMemEx(0x24000C0E, 0x0002 Bytes, ..., Flags = 0x02000000) -- CPU_ReadMem(2 bytes @ 0x24000C0E) - Data: 96 00  returns 0x02 (0001ms, 1663ms total)
T1A08 042:067 JLINK_ReadMemEx(0x24000804, 0x0001 Bytes, ..., Flags = 0x02000000) -- CPU_ReadMem(1 bytes @ 0x24000804) - Data: 02  returns 0x01 (0001ms, 1664ms total)
T1A08 042:068 JLINK_ReadMemEx(0x24000806, 0x0002 Bytes, ..., Flags = 0x02000000) -- CPU_ReadMem(2 bytes @ 0x24000806) - Data: C1 00  returns 0x02 (0001ms, 1665ms total)
T1A08 042:069 JLINK_ReadMemEx(0x24000808, 0x0002 Bytes, ..., Flags = 0x02000000) -- CPU_ReadMem(2 bytes @ 0x24000808) - Data: 00 02  returns 0x02 (0001ms, 1666ms total)
T1A08 042:070 JLINK_ReadMemEx(0x24000C0E, 0x0002 Bytes, ..., Flags = 0x02000000) -- CPU_ReadMem(2 bytes @ 0x24000C0E) - Data: F0 00  returns 0x02 (0001ms, 1667ms total)
T1A08 042:074 JLINK_ReadMemEx(0x24000804, 0x0001 Bytes, ..., Flags = 0x02000000) -- CPU_ReadMem(1 bytes @ 0x24000804) - Data: 02  returns 0x01 (0000ms, 1667ms total)
T1A08 042:074 JLINK_ReadMemEx(0x24000806, 0x0002 Bytes, ..., Flags = 0x02000000) -- CPU_ReadMem(2 bytes @ 0x24000806) - Data: 5E 01  returns 0x02 (0001ms, 1668ms total)
T1A08 042:075 JLINK_ReadMemEx(0x24000808, 0x0002 Bytes, ..., Flags = 0x02000000) -- CPU_ReadMem(2 bytes @ 0x24000808) - Data: 00 02  returns 0x02 (0001ms, 1669ms total)
T1A08 042:076 JLINK_ReadMemEx(0x24000C0E, 0x0002 Bytes, ..., Flags = 0x02000000) -- CPU_ReadMem(2 bytes @ 0x24000C0E) - Data: 8D 01  returns 0x02 (0001ms, 1670ms total)
T1F98 042:100 JLINK_IsHalted()  returns FALSE (0000ms, 1670ms total)
T1F98 042:200 JLINK_IsHalted()  returns FALSE (0000ms, 1670ms total)
T1F98 042:300 JLINK_ReadMemU32(0xE0001004, 0x0001 Items, ...) - Data: 6E F4 29 11  returns 1 (0000ms, 1670ms total)
T1A08 042:300 JLINK_ReadMemEx(0x24000804, 0x0001 Bytes, ..., Flags = 0x02000000) -- CPU_ReadMem(1 bytes @ 0x24000804) - Data: 02  returns 0x01 (0001ms, 1671ms total)
T1A08 042:301 JLINK_ReadMemEx(0x24000806, 0x0002 Bytes, ..., Flags = 0x02000000) -- CPU_ReadMem(2 bytes @ 0x24000806) - Data: 5D 01  returns 0x02 (0001ms, 1672ms total)
T1A08 042:302 JLINK_ReadMemEx(0x24000808, 0x0002 Bytes, ..., Flags = 0x02000000) -- CPU_ReadMem(2 bytes @ 0x24000808) - Data: 00 02  returns 0x02 (0001ms, 1673ms total)
T1A08 042:303 JLINK_ReadMemEx(0x24000C0E, 0x0002 Bytes, ..., Flags = 0x02000000) -- CPU_ReadMem(2 bytes @ 0x24000C0E) - Data: 8D 01  returns 0x02 (0001ms, 1674ms total)
T1F98 042:304 JLINK_IsHalted()  returns FALSE (0001ms, 1675ms total)
T1F98 042:405 JLINK_IsHalted()  returns FALSE (0000ms, 1674ms total)
T1F98 042:505 JLINK_IsHalted()  returns FALSE (0000ms, 1674ms total)
T1F98 042:605 JLINK_IsHalted()  returns FALSE (0000ms, 1674ms total)
T1F98 042:705 JLINK_IsHalted()  returns FALSE (0000ms, 1674ms total)
